! TDS: K:\Engsetup\Winsaw\890084DS_SEG
! Channel 1
! Ports=1 2 3 
! seg 1=10.000000 1159.900000 101
! seg 2=1160.000000 1280.000000 650
! seg 3=1280.100000 1499.900000 100
! seg 4=1500.000000 1640.000000 650
! seg 5=1640.100000 3000.000000 100
! Points=1601
! FailCode=43
! Topology=ALL_SE(123)
# MHz S DB R 50
  10.000000 -0.184981 178.896367 -88.183586 77.382211 -88.774336 -30.299096
           -79.237401 38.459796 -0.330835 177.226956 -79.665516 65.985665
           -99.209754 -135.184664 -84.290745 127.024216 -0.343246 177.176742
  21.499000 -0.245760 178.278286 -86.207935 61.116017 -79.507967 -99.364648
           -89.916419 21.239762 -0.394550 174.598597 -86.934701 -70.286003
           -86.861412 -18.669412 -81.248443 58.567059 -0.397489 174.522009
  32.998000 -0.263335 177.536063 -87.440947 90.940550 -81.890398 -48.665719
           -83.425002 65.456433 -0.447546 171.943383 -87.405570 81.534185
           -82.611934 103.679042 -79.782795 126.915132 -0.454875 171.747967
  44.497000 -0.299242 176.834265 -87.922412 110.826284 -89.341061 128.807923
           -78.302613 105.996453 -0.479461 169.385780 -94.204405 103.919545
           -87.109357 113.962782 -78.349897 72.785372 -0.503457 169.241322
  55.996000 -0.321509 176.236259 -87.706459 103.086959 -89.946781 89.143915
           -90.753971 75.021429 -0.519579 166.898632 -85.480971 76.298338
           -102.546977 54.731544 -84.426553 74.091694 -0.535286 166.782327
  67.495000 -0.336615 175.681960 -86.355188 74.757945 -94.473278 121.506739
           -89.578670 69.917879 -0.541805 164.436695 -80.209906 63.604276
           -94.113067 -135.306651 -82.218115 70.364897 -0.559506 164.279635
  78.994000 -0.338138 175.001227 -86.842644 91.006183 -91.774259 78.143507
           -82.275028 68.966768 -0.567132 161.968004 -81.875364 62.130859
           -93.867681 56.164967 -82.081953 61.015329 -0.581349 161.818375
  90.493000 -0.360652 174.312100 -82.414867 93.214121 -105.128530 -120.529194
           -82.673330 82.175497 -0.584415 159.410898 -80.987246 64.476558
           -102.758121 36.312284 -80.336302 75.218919 -0.599838 159.247098
 101.992000 -0.358944 173.639265 -82.299026 95.502406 -92.628950 -110.110760
           -82.863725 72.258038 -0.609294 156.970723 -80.428713 54.698176
           -93.023316 150.281310 -79.819970 65.306388 -0.618748 156.790196
 113.491000 -0.367709 172.979680 -83.639325 82.697608 -93.704310 147.318683
           -82.967086 68.732406 -0.633392 154.489765 -78.021362 59.088789
           -91.050242 -153.234570 -79.632008 74.204291 -0.640296 154.277599
 124.990000 -0.378275 172.279911 -83.033020 74.797236 -98.037979 119.197635
           -81.246708 77.638588 -0.640799 152.042699 -78.457386 62.567622
           -92.090555 -159.319279 -78.601698 49.693761 -0.658532 151.784542
 136.489000 -0.381305 171.607202 -82.436844 79.936895 -93.782587 -138.207803
           -81.724290 79.936744 -0.658977 149.625923 -76.951424 61.437653
           -90.891669 -137.364384 -77.914992 52.692455 -0.678367 149.293328
 147.988000 -0.381778 170.990745 -81.338673 75.040500 -90.143648 -157.423478
           -83.363503 75.683112 -0.666844 147.108168 -77.969034 58.530218
           -90.610401 -153.396551 -77.820384 50.921604 -0.683702 146.792488
 159.487000 -0.384337 170.256385 -84.934297 64.044740 -85.787865 -126.842171
           -80.804076 83.517278 -0.683738 144.701117 -77.315764 51.575357
           -83.901528 -133.546564 -77.562551 57.100520 -0.702123 144.252321
 170.986000 -0.393680 169.634779 -84.206022 78.919755 -83.580353 -132.798502
           -82.245080 79.106015 -0.686043 142.322038 -77.259870 49.714166
           -81.471855 -143.319153 -77.285897 49.702492 -0.709838 141.894041
 182.485000 -0.398063 168.938196 -81.737772 84.263981 -81.099466 -135.102786
           -85.196675 68.892543 -0.699599 139.886261 -76.782541 51.608924
           -80.341162 -128.534410 -76.882007 49.192284 -0.730556 139.459626
 193.984000 -0.405382 168.289271 -90.060112 114.424037 -79.179504 -134.817170
           -88.232122 128.878778 -0.713788 137.463595 -77.321921 42.968539
           -80.177030 -140.311563 -77.567136 53.398176 -0.738662 137.020070
 205.483000 -0.402529 167.544074 -89.066726 123.541315 -77.102915 -140.646967
           -88.629094 115.164768 -0.721849 135.148212 -75.713860 38.604625
           -76.788396 -118.288482 -76.360769 42.417425 -0.745350 134.594933
 216.982000 -0.413251 166.846974 -88.514436 147.150655 -76.900232 -144.046587
           -89.347963 122.720639 -0.740207 132.758269 -76.997202 48.921939
           -76.104157 -131.867172 -77.175934 46.382693 -0.761756 132.169574
 228.481000 -0.427727 166.195231 -85.396708 161.285312 -73.793753 -131.004650
           -88.071634 142.675489 -0.750672 130.495264 -75.583822 47.304109
           -74.276451 -132.324681 -76.934491 42.968627 -0.781472 129.806240
 239.980000 -0.435008 165.474204 -86.342065 167.541147 -72.699231 -133.702578
           -84.607323 -166.406140 -0.760878 128.114855 -77.697942 43.366570
           -72.751733 -136.139483 -75.455455 37.288347 -0.783960 127.393597
 251.479000 -0.441429 164.853638 -80.310216 -171.616619 -71.003261 -135.155708
           -80.548345 -165.230239 -0.773447 125.815748 -77.968480 36.132833
           -71.457825 -137.300736 -77.046161 39.695656 -0.800712 125.017989
 262.978000 -0.442829 164.144476 -81.532756 -156.030697 -69.697980 -138.819058
           -80.085170 -145.042106 -0.773309 123.540175 -76.956420 37.210584
           -69.407703 -134.347826 -78.583765 44.877239 -0.801076 122.594120
 274.477000 -0.450419 163.489122 -76.839143 -150.780463 -68.795142 -141.706718
           -77.083757 -150.224149 -0.782078 121.208945 -78.914104 45.015353
           -69.092609 -137.855620 -78.457861 43.586721 -0.811124 120.222545
 285.976000 -0.448536 162.778922 -75.508066 -152.713668 -67.791675 -138.981944
           -76.255930 -148.369214 -0.785106 118.945294 -80.770145 27.731632
           -68.493000 -137.456681 -78.266806 29.872116 -0.817079 117.798632
 297.475000 -0.451831 162.124467 -72.820073 -148.721182 -66.604117 -140.100010
           -72.740841 -146.078356 -0.787311 116.650672 -80.006953 34.512396
           -66.722025 -140.376974 -78.987112 33.329395 -0.822437 115.410064
 308.974000 -0.456200 161.305398 -71.711379 -148.306500 -65.500559 -142.650211
           -71.312176 -144.722560 -0.792279 114.318894 -79.282792 28.224391
           -65.586943 -143.685090 -79.514321 31.536039 -0.828136 112.976911
 320.473000 -0.457608 160.572962 -69.453477 -147.252228 -64.443705 -142.336738
           -69.796189 -145.348905 -0.803388 112.051033 -82.260966 37.446258
           -64.301640 -143.598331 -80.843285 45.835423 -0.825688 110.527703
 331.972000 -0.478841 159.882912 -68.905244 -146.547623 -62.686760 -143.726578
           -68.891377 -147.642091 -0.808789 109.802578 -82.222893 55.129346
           -63.292737 -143.237203 -85.603996 45.399350 -0.848685 108.067651
 343.471000 -0.488951 159.044394 -67.559630 -151.488597 -62.517154 -144.314656
           -67.548198 -150.290437 -0.805781 107.496682 -85.688886 45.777536
           -62.365960 -145.624462 -83.168317 39.408515 -0.848840 105.693786
 354.970000 -0.489965 158.254027 -66.111963 -156.290452 -62.053399 -146.260801
           -66.186883 -154.582782 -0.817380 105.199685 -86.168932 15.731879
           -61.878872 -147.796471 -87.000541 54.092584 -0.854298 103.214624
 366.469000 -0.500443 157.475213 -65.110492 -151.283696 -60.918936 -148.437371
           -65.013061 -150.890923 -0.810652 102.940735 -89.796369 29.091856
           -61.143291 -148.628144 -89.903476 77.616908 -0.856481 100.813649
 377.968000 -0.509385 156.649500 -64.075000 -151.860031 -59.938778 -148.456352
           -64.180221 -151.711803 -0.820263 100.724573 -88.606489 112.074409
           -60.114984 -147.545071 -91.569727 61.262926 -0.859978 98.461830
 389.467000 -0.511452 155.870193 -62.944012 -151.278479 -59.251050 -150.844647
           -63.268348 -152.799445 -0.811736 98.480191 -87.086162 119.164152
           -58.880645 -150.451427 -90.500720 127.124523 -0.864801 96.034893
 400.966000 -0.524471 154.998965 -61.927728 -154.425025 -57.766744 -152.901356
           -62.073697 -153.529056 -0.827450 96.333091 -86.008604 152.867777
           -57.897965 -153.489590 -92.350437 136.577186 -0.864118 93.635285
 412.465000 -0.532378 154.187320 -60.801204 -157.260455 -57.312610 -154.551848
           -60.830131 -155.510107 -0.828159 94.084976 -87.749685 155.748116
           -57.221465 -153.698867 -84.282183 129.166991 -0.867638 91.257276
 423.964000 -0.537140 153.283162 -59.748533 -156.350646 -57.129555 -155.453267
           -59.727073 -156.441835 -0.830040 91.944594 -84.428546 154.153697
           -57.105454 -155.505333 -83.123375 157.206157 -0.854505 88.839661
 435.463000 -0.544052 152.440189 -59.405210 -156.610428 -56.471907 -158.725537
           -59.424070 -156.123096 -0.827384 89.672005 -82.250741 151.477854
           -56.563501 -158.168823 -81.336868 159.575839 -0.864994 86.444454
 446.962000 -0.563375 151.543064 -59.028877 -160.431996 -55.753463 -158.730860
           -58.965306 -160.887542 -0.830172 87.568207 -79.658662 169.807741
           -55.718281 -159.070331 -78.613965 160.393753 -0.873455 84.072079
 458.461000 -0.562153 150.599873 -57.852852 -161.149979 -54.782519 -159.590818
           -57.928213 -162.046421 -0.822670 85.370058 -77.414892 166.701319
           -54.869900 -159.732849 -77.972278 161.919043 -0.869550 81.589113
 469.960000 -0.581711 149.657980 -57.108192 -163.336104 -53.765736 -161.770191
           -57.041996 -163.868483 -0.817064 83.100240 -78.130241 163.429044
           -53.793568 -161.998108 -77.014418 164.777452 -0.878431 79.189187
 481.459000 -0.581206 148.623962 -56.266846 -162.663369 -52.940223 -163.529536
           -56.282153 -162.922585 -0.817831 80.900552 -76.406432 161.271046
           -52.914411 -163.462094 -74.407504 167.833146 -0.876251 76.773666
 492.958000 -0.590034 147.607503 -55.619926 -164.352465 -52.998096 -162.813820
           -55.520123 -163.619730 -0.812866 78.677373 -74.240522 156.918409
           -52.999319 -163.529337 -74.252832 160.257276 -0.879851 74.392158
 504.457000 -0.607107 146.572204 -54.876758 -165.814485 -52.659358 -166.926157
           -54.804471 -165.864363 -0.818921 76.518944 -72.460586 157.568095
           -52.594738 -167.417086 -73.830082 154.941886 -0.880460 71.988740
 515.956000 -0.613127 145.544964 -53.917528 -169.930935 -51.869482 -169.629471
           -53.878852 -169.764195 -0.815519 74.357430 -72.838308 158.365705
           -51.911444 -170.130928 -72.356645 155.905339 -0.876181 69.584954
 527.455000 -0.636295 144.515479 -52.926561 -170.341357 -51.096586 -170.224520
           -52.969602 -170.454087 -0.828774 72.258952 -71.609114 156.866081
           -51.210670 -170.197332 -71.728323 157.270258 -0.874062 67.139005
 538.954000 -0.657509 143.373088 -52.543504 -170.897053 -50.227395 -171.117979
           -52.537303 -170.656675 -0.818149 70.078183 -70.963051 152.151117
           -50.249049 -171.853392 -71.277074 154.363354 -0.872592 64.753340
 550.453000 -0.671659 142.246580 -52.369400 -171.751827 -49.537125 -173.331940
           -52.354469 -171.367679 -0.816905 67.970805 -70.473431 151.725557
           -49.530041 -173.436643 -70.070273 149.054304 -0.883833 62.398322
 561.952000 -0.678905 141.107300 -51.843526 -174.531648 -49.178507 -171.471616
           -51.817883 -174.672806 -0.812739 65.935540 -69.360806 151.625540
           -49.181603 -171.640463 -69.759494 150.256353 -0.883636 60.045635
 573.451000 -0.694830 139.931093 -50.957695 -174.947544 -49.093909 -175.065804
           -51.044839 -175.443255 -0.801039 63.819289 -68.971284 147.672111
           -49.141978 -175.484119 -69.145787 149.958313 -0.872805 57.744076
 584.950000 -0.707481 138.719864 -50.328328 -176.231525 -48.802192 -179.900451
           -50.338068 -176.168460 -0.793404 61.738951 -68.802291 148.978846
           -48.807270 179.877916 -68.025911 142.848140 -0.867269 55.426047
 596.449000 -0.711427 137.451834 -49.719494 -177.047373 -48.044222 179.657088
           -49.776709 -177.006012 -0.794918 59.637748 -68.279246 145.259450
           -48.056671 179.383462 -67.983996 145.009136 -0.864311 53.048187
 607.948000 -0.724306 136.151427 -49.290446 -178.252182 -47.118257 178.645540
           -49.263304 -178.576802 -0.792601 57.527777 -67.545205 142.258342
           -47.187425 178.351748 -67.741806 145.574794 -0.846683 50.662818
 619.447000 -0.730268 134.752475 -48.775209 175.837218 -46.278774 175.811787
           -48.825982 176.201168 -0.780461 55.412025 -67.447141 140.273407
           -46.252756 175.902471 -67.636981 140.541155 -0.850441 48.231671
 630.946000 -0.733428 133.396514 -47.885995 173.042893 -45.678570 176.870384
           -47.866004 172.694412 -0.760888 53.357218 -66.826294 143.194811
           -45.632330 176.678702 -67.007403 136.550069 -0.848122 45.819207
 642.445000 -0.729983 131.968295 -46.975439 173.074029 -45.616212 174.593392
           -46.981559 173.023749 -0.748365 51.326502 -66.596942 139.412590
           -45.648238 174.343789 -66.700239 137.949571 -0.827839 43.541390
 653.944000 -0.760566 130.525973 -46.978810 173.136924 -45.803071 169.072625
           -47.022318 173.158212 -0.744530 49.294896 -66.670744 136.428429
           -45.843203 169.011846 -66.558144 138.542257 -0.814278 41.282251
 665.443000 -0.801763 129.043445 -46.660146 171.636300 -45.261079 167.223698
           -46.669675 171.542436 -0.753356 47.321178 -65.712096 135.360611
           -45.309032 166.923737 -66.000379 134.230753 -0.815715 38.927371
 676.942000 -0.837386 127.500315 -45.918800 169.993532 -44.483623 167.112163
           -45.966381 169.943329 -0.751886 45.333751 -66.112246 130.868300
           -44.493526 167.121122 -66.147077 132.251485 -0.825184 36.623557
 688.441000 -0.864757 125.772422 -45.289269 168.113188 -43.555461 165.352492
           -45.329508 167.631480 -0.746989 43.370110 -65.926170 130.596916
           -43.581029 165.225409 -65.834515 133.821810 -0.820904 34.318506
 699.940000 -0.896942 123.975991 -44.483279 166.387393 -42.824986 165.292024
           -44.488509 166.366945 -0.748584 41.380437 -65.571190 131.255356
           -42.829548 164.893158 -65.916439 130.323296 -0.840231 31.971994
 711.439000 -0.922063 122.131592 -44.172380 166.793846 -42.326817 164.997633
           -44.165666 166.408577 -0.737895 39.400104 -65.610845 127.955536
           -42.357904 165.001426 -66.089808 130.055064 -0.840694 29.773931
 722.938000 -0.939188 120.342060 -44.255614 163.169024 -42.751358 160.467003
           -44.254449 162.945701 -0.732753 37.474045 -65.503353 127.342439
           -42.806160 160.287232 -65.336868 128.397263 -0.822635 27.500619
 734.437000 -0.971359 118.344460 -43.817493 156.707025 -42.602136 155.807900
           -43.845505 156.664118 -0.735323 35.634900 -65.294489 127.353516
           -42.597412 155.464639 -65.178919 125.563711 -0.808280 25.226145
 745.936000 -1.005632 116.245927 -43.086901 155.479222 -41.869361 153.502150
           -43.085741 155.479489 -0.731492 33.654114 -65.232394 125.088294
           -41.893786 153.473006 -65.432851 124.150874 -0.806870 22.920273
 757.435000 -1.021172 114.028663 -42.460580 155.410676 -41.193988 152.238180
           -42.480358 155.442134 -0.714042 31.767828 -65.305307 122.636878
           -41.193902 152.166772 -65.349943 124.207755 -0.783024 20.728789
 768.934000 -1.074422 111.805351 -42.164644 154.812205 -40.387268 150.689072
           -42.189357 154.754624 -0.713028 29.915376 -65.914417 122.154939
           -40.418219 150.768896 -65.473160 123.567503 -0.796859 18.511920
 780.433000 -1.140583 109.370051 -41.641890 152.674444 -39.191217 151.935879
           -41.645898 152.653485 -0.705239 28.002231 -65.552409 120.571249
           -39.203279 151.980991 -65.576039 120.307008 -0.817183 16.282478
 791.932000 -1.194777 106.985345 -41.119804 149.233993 -39.932740 151.719760
           -41.159105 149.166846 -0.720656 26.150190 -65.378135 118.380612
           -39.935942 151.618857 -65.815338 119.015967 -0.829477 14.106412
 803.431000 -1.258708 104.424718 -40.389322 145.986824 -40.319011 144.387112
           -40.395064 145.924209 -0.727796 24.405260 -65.464689 119.998627
           -40.364445 144.370144 -65.464280 118.647303 -0.823668 11.953726
 814.930000 -1.332014 101.502682 -39.553042 145.059078 -39.722168 138.882142
           -39.533643 145.173800 -0.728403 22.517967 -65.345515 117.924356
           -39.757698 138.803066 -65.770954 120.509268 -0.797819 9.634773
 826.429000 -1.377604 98.425574 -39.502824 145.210636 -39.024561 138.052608
           -39.512835 144.888805 -0.707056 20.717332 -65.622128 117.456777
           -39.049108 137.917129 -66.066240 119.362971 -0.800548 7.285471
 837.928000 -1.437435 95.155660 -39.679996 139.722106 -38.061720 134.491895
           -39.682345 139.530317 -0.689429 18.902417 -66.197804 118.400699
           -38.076384 134.374688 -66.157562 118.083421 -0.808697 4.888551
 849.427000 -1.501921 91.719837 -39.217515 134.945773 -36.484935 130.678060
           -39.206687 134.978569 -0.687487 16.934990 -65.948180 120.391277
           -36.504102 130.730743 -66.375690 121.170750 -0.817182 2.527166
 860.926000 -1.572913 87.971008 -38.687443 134.592684 -36.714037 133.780205
           -38.698149 134.726891 -0.675373 15.011155 -67.028278 119.731625
           -36.744937 133.817369 -67.237025 118.289993 -0.827154 0.178187
 872.425000 -1.665311 84.206294 -38.240035 133.281219 -37.599785 133.485799
           -38.241233 133.387948 -0.684517 13.099495 -67.233587 115.467383
           -37.593908 133.430625 -66.986661 117.612152 -0.807116 -2.027185
 883.924000 -1.753916 80.266420 -37.753779 131.673986 -37.934382 122.833698
           -37.753346 131.702972 -0.708581 11.209920 -66.967275 117.112223
           -37.950966 122.740575 -67.172908 116.809390 -0.805812 -4.232553
 895.423000 -1.865641 75.899084 -37.687898 127.312655 -37.254203 118.339206
           -37.712308 127.179371 -0.724175 9.466859 -67.363823 121.085241
           -37.248831 118.210881 -67.660990 120.944357 -0.825997 -6.667043
 906.922000 -2.005842 71.282874 -37.142127 120.052094 -36.709124 115.485025
           -37.136813 120.136551 -0.736936 7.692700 -67.392411 122.428728
           -36.720886 115.523886 -67.442607 120.111150 -0.845409 -9.162916
 918.421000 -2.172183 66.559034 -36.258643 115.975379 -35.611883 104.192034
           -36.230994 116.075689 -0.746084 5.950675 -67.296122 127.753302
           -35.609962 104.172130 -67.101725 125.856382 -0.905691 -11.498724
 929.920000 -2.322558 61.482331 -35.785954 114.858399 -33.781564 106.617716
           -35.767950 114.834478 -0.750541 4.141115 -67.017140 135.027819
           -33.791915 106.588769 -67.401161 133.579661 -0.955782 -13.673175
 941.419000 -2.456172 56.351297 -36.031142 113.756815 -32.957820 111.124482
           -36.013814 113.801272 -0.741603 2.397753 -67.912324 139.190296
           -32.964047 111.166401 -67.890042 144.218345 -0.956958 -15.689012
 952.918000 -2.523769 50.561228 -35.940420 109.890241 -35.218177 108.496420
           -35.915035 109.801754 -0.734483 0.593504 -69.003708 134.350992
           -35.229846 108.507623 -69.114503 136.283948 -0.916717 -17.853538
 964.417000 -2.624767 44.265535 -35.482712 106.718100 -36.196723 98.121666
           -35.484498 106.765875 -0.722721 -1.236730 -69.522589 133.031272
           -36.206732 98.064762 -69.484148 134.854661 -0.893535 -20.278558
 975.916000 -2.769651 37.448991 -35.046327 103.009708 -35.404095 96.327417
           -35.014272 102.994687 -0.727532 -3.017315 -69.073922 144.141034
           -35.403676 96.311788 -69.496076 142.570832 -0.888894 -22.974789
 987.415000 -2.906924 30.282870 -34.506251 100.123283 -35.378313 88.325848
           -34.498659 100.120411 -0.737839 -4.751353 -69.058045 148.098400
           -35.396000 88.290161 -69.433102 151.180425 -0.895212 -25.618710
