! TDS: K:\Engsetup\Winsaw\890084DS_SEG
! Channel 1
! Ports=1 2 3 
! seg 1=10.000000 1159.900000 101
! seg 2=1160.000000 1280.000000 650
! seg 3=1280.100000 1499.900000 100
! seg 4=1500.000000 1640.000000 650
! seg 5=1640.100000 3000.000000 100
! Points=1601
! FailCode=0
! Topology=ALL_SE(123)
# MHz S DB R 50
  10.000000 -0.172066 178.925573 -86.683893 46.971963 -89.190617 -49.305993
           -94.264898 -16.960645 -0.285407 177.265698 -80.534804 84.839892
           -87.901589 74.330262 -91.553540 137.432883 -0.292997 177.217951
  21.499000 -0.230939 178.321431 -85.472902 35.957646 -90.229884 73.985510
           -85.189315 165.778987 -0.352526 174.672851 -81.649476 10.529320
           -103.950678 88.957908 -80.289440 131.960492 -0.352291 174.621618
  32.998000 -0.249585 177.613522 -90.178153 99.945080 -121.424384 56.366303
           -92.989892 63.730545 -0.407801 172.077218 -84.171667 115.263037
           -85.649234 164.006592 -92.846308 -100.278597 -0.411053 171.880914
  44.497000 -0.282204 176.940998 -81.302931 69.381867 -78.965054 45.355428
           -82.226255 89.723222 -0.439061 169.559560 -105.640006 161.084627
           -85.822167 -83.643650 -79.909304 148.879799 -0.459640 169.423162
  55.996000 -0.302050 176.372988 -85.717732 80.574428 -94.690544 143.416935
           -86.291686 89.116377 -0.481215 167.084487 -83.307114 71.299965
           -89.848089 127.145628 -84.610693 65.120887 -0.487560 166.992014
  67.495000 -0.318639 175.841938 -89.032672 93.033723 -93.042256 154.926261
           -82.821362 98.316534 -0.501422 164.652641 -83.590638 68.021089
           -97.350066 158.781111 -82.258088 78.354314 -0.512576 164.526831
  78.994000 -0.320425 175.176583 -80.709174 76.934738 -101.357875 -32.836413
           -83.388715 75.226305 -0.529654 162.220586 -82.724865 70.136777
           -93.224933 121.474645 -78.715385 73.857539 -0.532990 162.100666
  90.493000 -0.340723 174.522399 -82.227676 92.191537 -102.541559 98.844410
           -83.904352 88.408720 -0.543709 159.701897 -78.845660 69.599476
           -98.728683 173.981701 -79.750901 67.463430 -0.551857 159.548303
 101.992000 -0.341036 173.869615 -82.579587 74.243238 -90.805760 -99.774469
           -82.817442 74.214659 -0.567543 157.287161 -79.259928 68.551643
           -102.420930 67.782489 -79.829404 71.787904 -0.570400 157.127517
 113.491000 -0.348431 173.221966 -80.580648 90.251660 -107.472464 -18.279127
           -84.410951 79.170442 -0.588735 154.831378 -78.594834 59.517075
           -97.317629 47.718073 -79.194349 69.369672 -0.591144 154.653748
 124.990000 -0.360398 172.529576 -80.678202 74.321198 -103.570797 -19.368019
           -80.918292 74.631184 -0.596704 152.405491 -77.800793 62.238402
           -90.079373 -164.685383 -77.901475 62.637304 -0.609189 152.176921
 136.489000 -0.360179 171.869877 -82.336232 80.014512 -93.282455 -160.043235
           -83.145821 91.109599 -0.612891 150.002872 -78.041222 56.125964
           -108.507298 -137.777529 -78.673954 53.839614 -0.626397 149.698414
 147.988000 -0.357722 171.245533 -83.406416 71.445987 -90.267495 -116.344241
           -82.286913 74.806336 -0.621709 147.502365 -79.470450 49.056563
           -88.230786 -137.960701 -77.566869 51.209711 -0.631894 147.217156
 159.487000 -0.362683 170.521631 -83.507807 68.734300 -88.447031 -136.733845
           -81.799882 79.460865 -0.639613 145.096272 -76.889088 52.411559
           -86.799093 -137.609625 -78.326114 49.986989 -0.650355 144.671202
 170.986000 -0.370477 169.895852 -87.416879 77.685827 -84.505487 -138.097247
           -82.052289 78.612371 -0.637975 142.730159 -77.625410 51.475529
           -85.934125 -132.655549 -77.989225 51.902837 -0.657722 142.324523
 182.485000 -0.374595 169.204067 -87.068215 58.646689 -81.336366 -142.498764
           -84.676677 72.006458 -0.652613 140.324065 -77.128276 53.929626
           -83.400327 -133.830359 -76.102824 46.284425 -0.676003 139.886358
 193.984000 -0.381718 168.539818 -87.281264 55.685512 -78.545032 -120.351092
           -85.413122 83.077057 -0.666359 137.908406 -76.077328 46.720991
           -79.253093 -133.667204 -76.055526 41.916064 -0.685896 137.468025
 205.483000 -0.378833 167.812157 -86.453070 95.735941 -78.025432 -141.317048
           -85.428864 107.689449 -0.674283 135.599532 -77.557610 40.536636
           -77.005440 -129.795507 -76.918479 39.324693 -0.689348 135.054571
 216.982000 -0.391460 167.114575 -89.006069 117.889408 -75.481583 -124.491345
           -84.711609 124.005114 -0.688563 133.209180 -77.589922 55.431596
           -77.235502 -134.236818 -75.949772 51.940575 -0.702741 132.632414
 228.481000 -0.403956 166.471234 -89.216631 153.843272 -74.225035 -135.233352
           -91.600220 148.909985 -0.696641 130.963364 -77.659153 41.152594
           -75.119139 -127.965949 -76.493134 39.237442 -0.722188 130.288310
 239.980000 -0.407858 165.743491 -83.585624 178.071481 -73.823671 -138.880957
           -86.501920 172.678731 -0.705470 128.589430 -77.241327 35.818558
           -72.598937 -133.442996 -76.855523 37.538600 -0.721668 127.888171
 251.479000 -0.414939 165.111992 -82.596414 -167.555078 -71.787902 -137.494759
           -80.427545 -166.811605 -0.716658 126.287073 -77.821525 41.466059
           -70.941082 -135.183604 -77.201612 43.541651 -0.738267 125.501183
 262.978000 -0.412933 164.402358 -80.791519 -142.098273 -70.297876 -134.317047
           -81.526801 -160.629858 -0.716549 124.015434 -77.429078 36.609097
           -70.389022 -136.755391 -77.072603 48.138383 -0.737595 123.089059
 274.477000 -0.420592 163.745996 -78.040374 -147.433941 -69.414178 -138.150431
           -79.057461 -142.877845 -0.723525 121.679990 -77.196770 36.989508
           -69.178837 -134.824605 -78.225281 36.315684 -0.746201 120.736681
 285.976000 -0.418913 163.019809 -76.780841 -146.616237 -68.435599 -138.716963
           -76.902772 -144.944706 -0.726438 119.404353 -78.831259 27.652428
           -68.534774 -138.031663 -78.371742 32.862178 -0.751700 118.298428
 297.475000 -0.420120 162.352135 -73.650795 -142.309418 -66.980703 -140.430854
           -73.371792 -141.052120 -0.727877 117.105166 -79.643374 36.988255
           -66.858656 -141.228598 -80.020928 35.695283 -0.756802 115.907523
 308.974000 -0.424630 161.536736 -72.314206 -146.652683 -65.666383 -142.559786
           -72.021531 -146.319124 -0.732018 114.783303 -79.508573 35.832765
           -65.495937 -140.564100 -80.251108 34.333172 -0.760241 113.483528
 320.473000 -0.426474 160.791852 -70.870544 -145.939411 -64.626978 -143.649175
           -70.586880 -142.646099 -0.742309 112.513798 -80.626291 32.174588
           -64.725910 -142.365240 -79.877232 30.331283 -0.759023 111.035440
 331.972000 -0.445068 160.085345 -69.560082 -145.857490 -63.664940 -143.226333
           -69.714273 -146.558439 -0.744703 110.273790 -81.909039 36.944752
           -63.660003 -141.644490 -84.476578 52.290980 -0.777395 108.576518
 343.471000 -0.455532 159.256454 -68.097156 -152.165895 -62.606526 -143.501162
           -68.372528 -149.618870 -0.741411 107.959314 -81.453540 33.247391
           -63.112537 -142.618071 -87.151568 43.124349 -0.776117 106.197761
 354.970000 -0.455606 158.455898 -66.557218 -153.401768 -62.307142 -145.690048
           -66.398639 -153.937875 -0.752208 105.672233 -91.628127 21.597110
           -62.301998 -146.692870 -87.649311 42.980573 -0.781861 103.737251
 366.469000 -0.466134 157.678859 -65.483604 -147.359450 -61.601103 -146.566302
           -65.732484 -151.205952 -0.743747 103.426095 -88.857841 58.714112
           -61.571943 -145.744099 -87.054351 65.027168 -0.781158 101.355086
 377.968000 -0.472415 156.846119 -64.634606 -150.028200 -60.415439 -148.928135
           -64.717977 -148.865277 -0.751311 101.216156 -88.003128 71.978580
           -60.333948 -148.058893 -91.429748 83.495717 -0.784834 99.020882
 389.467000 -0.474696 156.073623 -63.568749 -152.023833 -59.556728 -151.129699
           -63.322373 -150.959684 -0.744286 98.965025 -93.716347 75.122997
           -59.320586 -151.201667 -92.446255 81.907210 -0.790170 96.593315
 400.966000 -0.484515 155.194017 -62.289410 -153.579176 -58.300263 -150.407799
           -62.460673 -151.933507 -0.757303 96.828981 -87.000184 148.539581
           -58.351531 -151.378382 -97.339896 126.458892 -0.787867 94.225988
 412.465000 -0.491414 154.364646 -61.187849 -153.527704 -57.775419 -151.488501
           -61.327810 -153.502982 -0.756657 94.572800 -85.859509 136.779612
           -57.563804 -151.700403 -85.803711 142.182518 -0.789653 91.851776
 423.964000 -0.496505 153.491818 -60.184000 -154.362731 -57.667724 -155.653505
           -60.200769 -155.287864 -0.756133 92.455224 -85.195267 158.361775
           -57.651286 -154.650198 -84.514457 156.430700 -0.776482 89.465638
 435.463000 -0.499372 152.649935 -59.819460 -157.231648 -56.871398 -157.223233
           -59.791133 -155.988590 -0.754346 90.182058 -81.504243 157.800628
           -56.931307 -157.144946 -84.119497 160.790630 -0.784446 87.073611
 446.962000 -0.517318 151.745620 -59.318884 -159.956217 -56.043282 -158.508649
           -59.341866 -159.694592 -0.757979 88.064105 -79.402227 161.025460
           -56.120654 -158.881981 -79.585606 178.568412 -0.794000 84.706434
 458.461000 -0.515222 150.816071 -58.469693 -161.364029 -55.254240 -158.920850
           -58.459476 -161.640287 -0.746500 85.875602 -77.384735 166.015817
           -55.285828 -159.282641 -77.466853 162.934986 -0.786358 82.245266
 469.960000 -0.533399 149.877361 -57.382995 -161.318873 -54.193812 -159.755661
           -57.488130 -160.965748 -0.745024 83.631775 -76.675391 169.319029
           -54.335338 -159.926821 -76.194741 155.776538 -0.794908 79.863551
 481.459000 -0.532039 148.865965 -56.812778 -161.582934 -53.331648 -161.649274
           -56.857684 -161.137113 -0.741467 81.433181 -74.806000 161.966772
           -53.413432 -161.393637 -74.812249 162.313729 -0.788253 77.464988
 492.958000 -0.539957 147.851542 -55.961460 -162.841094 -53.337683 -162.879781
           -56.088726 -162.817907 -0.736887 79.234215 -74.092524 160.946139
           -53.412607 -163.114215 -74.345737 156.705848 -0.791895 75.091770
 504.457000 -0.555582 146.839441 -55.313113 -165.487296 -53.234298 -166.454780
           -55.297278 -165.084841 -0.742857 77.088459 -73.303907 162.420866
           -53.189612 -166.221054 -73.237173 161.883870 -0.793223 72.721844
 515.956000 -0.558895 145.814598 -54.189976 -167.506496 -52.270458 -169.074493
           -54.311085 -168.465309 -0.739445 74.944872 -71.844688 159.324968
           -52.189171 -169.152984 -73.276679 161.012628 -0.787976 70.350082
 527.455000 -0.580392 144.794936 -53.438638 -169.367443 -51.474810 -169.342730
           -53.391740 -169.374834 -0.749170 72.873914 -72.187574 159.335367
           -51.515342 -169.262754 -71.624102 158.030792 -0.784454 67.922496
 538.954000 -0.599434 143.651884 -53.027917 -169.069376 -50.606271 -170.073911
           -53.039689 -169.225894 -0.738199 70.701640 -70.773804 155.465728
           -50.677408 -169.714621 -70.786847 153.374838 -0.783005 65.549589
 550.453000 -0.607731 142.536863 -52.824009 -170.679226 -49.894176 -170.400813
           -52.932540 -171.155679 -0.737501 68.596282 -70.176100 153.177066
           -49.975428 -171.245702 -71.013903 153.996880 -0.789496 63.232087
 561.952000 -0.614183 141.406099 -52.157118 -174.368516 -49.862365 -171.536697
           -52.225382 -174.290115 -0.734123 66.557385 -69.637783 153.510468
           -49.800281 -171.831567 -69.967906 151.219578 -0.785695 60.894124
 573.451000 -0.629142 140.248611 -51.493468 -173.770236 -49.870643 -175.121577
           -51.484048 -173.926009 -0.720437 64.458868 -69.415861 148.394031
           -49.897656 -174.850059 -69.216847 148.110380 -0.779461 58.621031
 584.950000 -0.639663 139.057349 -50.882251 -174.873648 -49.193465 179.801328
           -50.815259 -174.800868 -0.711426 62.401385 -68.711906 144.500754
           -49.205926 179.811932 -68.794328 147.156892 -0.773810 56.322489
 596.449000 -0.639344 137.800809 -50.123140 -175.756016 -48.525254 179.948921
           -50.157819 -175.056279 -0.711896 60.318544 -68.153609 144.588447
           -48.509021 -179.815314 -67.962397 145.375099 -0.772130 53.991386
 607.948000 -0.650891 136.541383 -49.767086 -178.450783 -47.678511 -179.848208
           -49.838025 -178.708240 -0.709640 58.232518 -67.564290 143.040398
           -47.681058 -179.951633 -67.896459 140.399564 -0.751239 51.627075
 619.447000 -0.655854 135.163598 -49.131048 176.596613 -46.705020 178.565070
           -49.253362 176.820903 -0.699411 56.147445 -67.131505 140.947726
           -46.728939 178.473217 -67.158032 142.066306 -0.753067 49.234143
 630.946000 -0.656931 133.830901 -48.062874 174.098780 -46.456903 178.619770
           -48.070807 174.317219 -0.682551 54.090830 -66.952779 140.620609
           -46.469221 178.671631 -66.670585 140.267367 -0.748778 46.824611
 642.445000 -0.654046 132.431207 -47.498724 175.662023 -46.529015 175.324723
           -47.526472 176.052414 -0.666680 52.085904 -66.594201 136.504168
           -46.502452 175.366626 -66.783286 137.867872 -0.734384 44.599743
 653.944000 -0.676030 131.016607 -47.479854 174.901136 -46.108797 168.773710
           -47.522150 174.950357 -0.661741 50.069998 -66.263965 137.140434
           -46.106964 168.947031 -66.967255 136.250208 -0.727437 42.356911
 665.443000 -0.710716 129.562191 -47.085439 172.414314 -45.623490 166.654905
           -47.057166 172.836448 -0.669088 48.077850 -66.527567 134.673239
           -45.644955 166.416734 -65.980288 132.184957 -0.722793 40.016285
 676.942000 -0.737638 128.049112 -46.405036 171.138907 -44.932324 168.051626
           -46.443484 171.133884 -0.666587 46.106994 -65.866495 132.138884
           -44.937178 168.275004 -65.850898 134.068083 -0.729554 37.733045
 688.441000 -0.759276 126.367041 -45.742504 169.814243 -44.004668 167.935138
           -45.750691 169.731098 -0.660057 44.152250 -65.674689 130.566966
           -44.033961 167.642811 -66.052173 128.291079 -0.715646 35.456714
 699.940000 -0.786747 124.629458 -45.156822 169.456580 -43.339112 167.238744
           -45.137543 169.549041 -0.660331 42.200150 -65.489177 129.140675
           -43.355240 167.135677 -65.491807 129.218390 -0.730813 33.169630
 711.439000 -0.809373 122.848825 -44.871731 168.379807 -43.445893 168.598626
           -44.913965 168.652484 -0.648972 40.276478 -65.478458 128.642047
           -43.493920 168.440429 -65.558828 127.397538 -0.733470 31.003115
 722.938000 -0.822830 121.167445 -44.626826 162.757862 -43.508696 160.997139
           -44.648107 162.920102 -0.649531 38.344665 -65.329117 127.468824
           -43.550773 160.792881 -65.265539 127.117938 -0.720531 28.824815
 734.437000 -0.853043 119.225508 -43.964981 156.313006 -43.042453 154.979923
           -43.959226 156.475979 -0.653053 36.522177 -64.975222 126.406298
           -43.067349 154.958360 -65.024134 124.402496 -0.713893 26.604015
 745.936000 -0.877683 117.203684 -43.285607 156.810787 -42.352541 155.542235
           -43.337927 156.773855 -0.647332 34.543845 -65.354702 124.870173
           -42.322441 155.259526 -65.066105 123.527680 -0.705015 24.298917
 757.435000 -0.888985 115.082434 -42.931089 157.648547 -41.653472 154.931671
           -42.974941 157.940881 -0.630476 32.682435 -65.071852 124.428850
           -41.604170 154.915767 -64.925782 124.734296 -0.686215 22.122885
 768.934000 -0.931785 112.921149 -42.652613 156.477823 -40.896827 153.433756
           -42.710347 156.627105 -0.629669 30.826669 -64.738647 120.845941
           -40.908709 153.433409 -65.055692 120.359166 -0.697980 19.878508
 780.433000 -0.985451 110.548506 -42.060539 154.251917 -40.687656 158.075551
           -42.096408 154.274534 -0.620176 28.915097 -65.356277 118.013824
           -40.692207 157.979318 -65.530521 118.528755 -0.722054 17.662947
 791.932000 -1.026209 108.306288 -41.428386 150.947696 -40.856519 152.801735
           -41.450548 151.047583 -0.636187 27.046619 -65.335424 119.218626
           -40.821470 152.645443 -65.173329 118.040200 -0.725468 15.580090
 803.431000 -1.079955 105.845710 -40.550469 148.007082 -40.958316 141.321715
           -40.558090 148.185889 -0.643774 25.281386 -65.005707 118.491543
           -41.002977 141.482601 -65.417539 118.921191 -0.723732 13.459529
 814.930000 -1.131952 103.120260 -40.159385 149.232078 -40.177339 139.522035
           -40.160539 149.327311 -0.635623 23.386610 -65.282597 116.450853
           -40.194301 139.576118 -64.962626 117.541588 -0.699488 11.170559
 826.429000 -1.169254 100.233124 -40.363250 147.348761 -39.489116 140.533506
           -40.413100 147.462920 -0.614314 21.643139 -65.565180 114.373439
           -39.514830 140.523523 -65.544974 114.297125 -0.700980 8.875831
 837.928000 -1.217620 97.151524 -40.155456 140.992455 -38.502684 138.305851
           -40.171280 141.152501 -0.601932 19.871107 -65.312733 115.135748
           -38.520903 138.299673 -65.513501 116.235905 -0.704796 6.489370
 849.427000 -1.274583 93.866848 -39.479859 136.946884 -37.256042 140.918848
           -39.496129 137.077704 -0.601503 17.909428 -65.918996 117.079038
           -37.270313 141.056053 -65.968182 116.384284 -0.717289 4.185405
 860.926000 -1.322007 90.410114 -39.099209 136.552267 -37.597730 139.444479
           -39.103748 136.647131 -0.587314 16.030000 -65.989480 116.497570
           -37.614186 139.345129 -66.037015 116.204115 -0.711327 1.891036
 872.425000 -1.393952 86.893872 -38.754177 135.362585 -39.202733 131.980177
           -38.749456 135.545780 -0.591582 14.166650 -66.398199 111.451430
           -39.206275 131.953110 -66.294272 113.421119 -0.697078 -0.221142
 883.924000 -1.463300 83.244249 -38.358387 133.704377 -38.520302 121.779920
           -38.348934 133.759395 -0.611771 12.304096 -66.317134 111.805995
           -38.527633 121.843427 -66.348153 114.614349 -0.702138 -2.378789
 895.423000 -1.546836 79.154135 -37.963123 128.595526 -37.544273 120.645443
           -37.971077 128.717936 -0.623141 10.574438 -66.887830 114.430762
           -37.532411 120.657309 -67.038253 113.635708 -0.710338 -4.768129
 906.922000 -1.657490 74.839054 -37.142100 123.117263 -36.902292 120.050189
           -37.142866 123.320464 -0.634559 8.815763 -67.147914 115.851849
           -36.919494 120.083778 -67.219144 116.778798 -0.720609 -7.174205
 918.421000 -1.792148 70.318568 -36.292684 120.250685 -35.091558 115.156348
           -36.283658 120.480497 -0.643057 7.097421 -67.163715 123.957180
           -35.101081 115.202727 -67.267655 123.258001 -0.775353 -9.579591
 929.920000 -1.911357 65.633828 -36.157731 120.813041 -34.140244 118.111578
           -36.143527 121.076813 -0.644775 5.277908 -68.070751 127.444817
           -34.149398 118.108462 -67.753717 129.216785 -0.816268 -11.748211
 941.419000 -2.018263 60.743255 -36.594755 117.096743 -34.608205 127.838173
           -36.595400 117.439400 -0.634186 3.587974 -69.077525 124.263406
           -34.604636 127.897065 -69.706903 127.458255 -0.836849 -13.787987
 952.918000 -2.078567 55.630655 -36.307941 113.120180 -36.620148 116.692394
           -36.298095 113.243523 -0.626130 1.814738 -69.190960 122.357365
           -36.627456 116.769181 -69.408298 123.541499 -0.799425 -15.798133
 964.417000 -2.147520 49.725998 -35.827211 110.731819 -36.374613 97.699068
           -35.808782 110.870802 -0.614787 0.006767 -68.734022 122.362023
           -36.382733 97.622184 -69.241031 121.373879 -0.771768 -18.169832
 975.916000 -2.258134 43.347388 -35.321456 107.510984 -35.657821 97.347975
           -35.303228 107.577673 -0.620176 -1.758637 -69.133153 129.630541
           -35.651267 97.283030 -69.168456 129.193893 -0.748305 -20.859199
 987.415000 -2.374165 36.668847 -34.892010 104.676221 -35.152218 91.794063
           -34.906008 104.833249 -0.628759 -3.463075 -69.234574 139.838657
           -35.164466 91.765431 -69.546256 134.179769 -0.761028 -23.469932
