! TDS: K:\Engsetup\Winsaw\890084DS_SEG
! Channel 1
! Ports=1 2 3 
! seg 1=10.000000 1159.900000 101
! seg 2=1160.000000 1280.000000 650
! seg 3=1280.100000 1499.900000 100
! seg 4=1500.000000 1640.000000 650
! seg 5=1640.100000 3000.000000 100
! Points=1601
! FailCode=0
! Topology=ALL_SE(123)
# MHz S DB R 50
  10.000000 -0.150760 178.974254 -90.332080 12.882404 -86.653330 128.350284
           -87.826383 3.185878 -0.232576 177.308887 -88.282237 27.429928
           -90.086733 80.366845 -86.277530 5.833350 -0.243683 177.292203
  21.499000 -0.208868 178.425432 -83.361235 141.564535 -88.653585 62.169882
           -81.493028 60.405507 -0.297329 174.802824 -87.340305 85.208261
           -79.491576 112.832253 -79.785866 117.560013 -0.297250 174.760725
  32.998000 -0.225186 177.765693 -88.506728 125.397454 -87.066809 2.036809
           -79.699586 138.466587 -0.350440 172.258886 -81.821540 103.265464
           -81.954513 98.024292 -80.564987 106.660762 -0.352484 172.082198
  44.497000 -0.260218 177.109979 -90.104616 -143.927452 -89.947882 -41.815358
           -82.372488 10.785274 -0.382251 169.781600 -85.044804 49.177622
           -93.206027 90.168088 -92.134006 104.399902 -0.400314 169.664070
  55.996000 -0.277091 176.576159 -87.359850 68.695637 -97.765677 -8.734123
           -85.555567 80.199528 -0.422850 167.361385 -82.206666 70.398850
           -96.692480 -38.710248 -85.133413 61.224901 -0.431402 167.294562
  67.495000 -0.291762 176.045220 -87.924406 129.680254 -94.882110 78.331214
           -85.227388 81.198174 -0.440708 164.962221 -81.679322 48.735013
           -93.588848 102.612174 -83.530876 57.246361 -0.452301 164.855449
  78.994000 -0.293232 175.405566 -84.160995 97.615999 -93.377027 42.592205
           -82.525307 85.555070 -0.467505 162.523612 -81.918770 64.082533
           -92.152327 -174.706840 -82.292014 67.478888 -0.473087 162.447344
  90.493000 -0.313093 174.741962 -82.378159 86.856371 -101.399461 39.371921
           -83.144126 62.996995 -0.481910 160.016649 -80.409913 68.148363
           -99.581819 41.150124 -80.804791 73.044481 -0.488530 159.906899
 101.992000 -0.308463 174.073633 -83.449213 84.853741 -95.510876 -15.192745
           -80.991487 79.594338 -0.503241 157.584257 -79.615968 53.785967
           -92.176687 -8.820097 -78.463431 62.848802 -0.507046 157.467263
 113.491000 -0.315981 173.409070 -81.047523 71.551841 -94.175771 161.954184
           -80.188696 83.157741 -0.524438 155.116896 -78.714415 72.550576
           -95.737250 -167.216103 -79.530162 62.023740 -0.525674 154.971744
 124.990000 -0.324754 172.714046 -81.646718 74.610021 -103.132642 156.356873
           -82.674398 73.278649 -0.529321 152.669302 -78.559758 66.192899
           -94.022747 -152.408875 -78.754400 55.638440 -0.542135 152.468567
 136.489000 -0.325183 172.031213 -82.499287 72.326148 -91.409557 -164.657981
           -81.511735 79.313392 -0.543954 150.256515 -77.490499 55.564672
           -92.439863 -121.911319 -77.492393 49.838372 -0.558426 149.982633
 147.988000 -0.322584 171.390656 -85.721632 77.453150 -92.109393 -92.146269
           -82.482624 88.946842 -0.548923 147.732364 -78.505649 58.521624
           -95.706058 -128.899443 -77.571414 50.973856 -0.560792 147.450516
 159.487000 -0.325195 170.630051 -83.696737 82.925097 -88.354076 -140.725394
           -81.969678 73.973898 -0.564373 145.325702 -78.682984 43.586764
           -84.293640 -124.273549 -77.877632 54.185614 -0.576553 144.864648
 170.986000 -0.332996 169.995450 -83.448928 78.115410 -83.230171 -133.017687
           -86.099966 82.470615 -0.559679 142.940365 -77.766893 50.670959
           -82.865648 -150.138113 -77.658209 57.481686 -0.581574 142.499787
 182.485000 -0.333796 169.266570 -84.941388 63.499758 -81.872325 -131.893167
           -82.069793 67.175475 -0.570523 140.505958 -77.325745 47.099346
           -82.035994 -116.817381 -76.574457 50.698244 -0.597951 140.013608
 193.984000 -0.340081 168.558707 -85.482238 81.827480 -79.493992 -137.379913
           -85.886226 93.010972 -0.582895 138.065698 -76.188565 50.706373
           -79.882917 -136.659597 -76.822079 51.502349 -0.603416 137.523105
 205.483000 -0.334920 167.795182 -85.460558 74.745456 -81.421922 -134.473624
           -84.924243 91.397310 -0.587168 135.740955 -78.146499 44.262712
           -77.805277 -126.830228 -78.685324 38.552497 -0.605230 135.077867
 216.982000 -0.346567 167.059629 -90.524743 104.163073 -78.713642 -131.674402
           -86.244912 115.391228 -0.601808 133.340403 -76.371983 43.449794
           -76.311270 -137.698375 -76.844866 43.695576 -0.617660 132.618472
 228.481000 -0.357699 166.357909 -87.349065 150.344811 -75.940536 -132.444764
           -88.079769 136.055086 -0.609122 131.082361 -76.937691 37.933129
           -75.671063 -126.202494 -78.109823 48.045313 -0.636078 130.229097
 239.980000 -0.363016 165.612408 -88.356922 156.331615 -73.470355 -131.447508
           -85.368653 -158.686859 -0.617525 128.675081 -77.900522 39.125443
           -72.909914 -133.185192 -77.279261 43.102994 -0.634427 127.795228
 251.479000 -0.367963 164.949533 -86.329474 -159.551985 -72.797981 -133.959949
           -86.194868 -158.148484 -0.626542 126.368118 -76.570594 28.167222
           -72.139519 -138.129893 -77.204691 39.417017 -0.647041 125.385150
 262.978000 -0.366420 164.199110 -83.709515 -152.030660 -70.404529 -128.988476
           -85.413916 -154.359054 -0.624789 124.095997 -78.334082 35.408658
           -70.523647 -131.855258 -77.683002 39.758751 -0.645966 122.943027
 274.477000 -0.371765 163.509859 -79.894108 -140.314080 -70.311218 -138.782454
           -81.473711 -158.625203 -0.630507 121.767022 -78.742538 31.362072
           -70.099610 -134.680523 -77.574329 31.714927 -0.650318 120.577681
 285.976000 -0.370208 162.744893 -76.974470 -145.808859 -68.950671 -140.706962
           -78.452450 -147.790931 -0.629862 119.488131 -79.162484 44.005738
           -68.668237 -138.389831 -78.948695 26.492891 -0.654423 118.145456
 297.475000 -0.369321 162.065899 -74.325594 -140.949688 -67.527241 -136.518942
           -75.852687 -145.829291 -0.629539 117.186530 -79.711793 33.033290
           -67.376278 -138.520833 -79.003981 37.650536 -0.655191 115.773868
 308.974000 -0.371466 161.227992 -73.288011 -139.888298 -66.246413 -137.110634
           -73.252836 -141.788539 -0.632121 114.848247 -80.989919 25.502941
           -66.175524 -138.557734 -79.134537 23.851030 -0.656635 113.357947
 320.473000 -0.372148 160.478129 -71.443280 -139.343684 -65.360736 -142.424164
           -72.002933 -143.864018 -0.641549 112.577349 -81.363120 23.095206
           -65.115121 -142.430880 -84.000150 40.761111 -0.652838 110.940778
 331.972000 -0.390893 159.770872 -70.753443 -149.091989 -64.110022 -141.516282
           -70.764130 -149.487266 -0.645910 110.334365 -82.702586 31.770866
           -64.015170 -141.250695 -80.593641 34.700960 -0.671666 108.502807
 343.471000 -0.398127 158.943916 -69.197614 -154.193685 -63.575182 -143.070064
           -69.051584 -155.487026 -0.639759 108.027123 -83.366940 20.344117
           -63.566842 -141.438847 -83.910883 35.641127 -0.670928 106.173476
 354.970000 -0.396903 158.143463 -66.659565 -150.125516 -63.696114 -147.523828
           -67.126537 -148.951704 -0.648469 105.731423 -85.173921 79.247580
           -63.179081 -146.788632 -87.084648 41.695663 -0.673967 103.745166
 366.469000 -0.405506 157.370612 -66.613314 -147.424953 -62.015039 -146.993784
           -66.314469 -149.463046 -0.640160 103.468000 -86.992253 67.020629
           -62.156261 -148.009531 -92.797208 5.589304 -0.670489 101.389617
 377.968000 -0.411885 156.543045 -65.104649 -150.045523 -60.914669 -147.399189
           -65.572865 -150.913316 -0.647709 101.231693 -89.002154 84.296329
           -60.893905 -146.520891 -90.938976 95.404164 -0.675294 99.076276
 389.467000 -0.414272 155.773148 -64.047127 -149.747582 -59.956360 -148.340177
           -64.406925 -152.000436 -0.636492 98.961711 -97.441894 106.694122
           -59.864833 -147.132792 -89.780742 152.285780 -0.676058 96.680686
 400.966000 -0.422788 154.913089 -62.996807 -152.311293 -59.001036 -149.486300
           -63.448375 -152.153551 -0.650706 96.798322 -90.974982 128.785676
           -59.028816 -150.241055 -87.863677 146.860946 -0.673383 94.303597
 412.465000 -0.427604 154.082919 -61.780763 -151.693722 -58.613803 -149.157599
           -61.884565 -151.165887 -0.650210 94.523263 -86.905043 157.898054
           -58.729660 -149.985759 -88.239653 138.282339 -0.673128 91.975043
 423.964000 -0.429488 153.215670 -61.040238 -152.597941 -58.109065 -155.415505
           -61.242732 -152.646368 -0.647301 92.368988 -87.415760 139.606290
           -58.210381 -154.933005 -82.304977 154.416006 -0.658121 89.596268
 435.463000 -0.434010 152.387238 -60.575267 -156.111498 -57.392197 -159.126135
           -60.637543 -155.833710 -0.642008 90.072218 -82.471568 169.426234
           -57.544620 -159.193300 -81.246117 173.632044 -0.665420 87.212714
 446.962000 -0.450046 151.509279 -59.770532 -159.099657 -56.464146 -157.560170
           -60.026350 -159.719030 -0.644611 87.964426 -80.306007 166.311338
           -56.447900 -157.879143 -79.354530 160.293846 -0.669663 84.877354
 458.461000 -0.446668 150.601517 -58.955307 -164.350469 -55.634872 -159.023501
           -58.919959 -164.550238 -0.635365 85.768975 -78.837769 169.184578
           -55.752894 -158.707682 -78.201744 167.529604 -0.665833 82.431105
 469.960000 -0.461892 149.682021 -58.154995 -160.029655 -54.835631 -159.116336
           -58.109018 -160.649236 -0.628449 83.502133 -76.940545 163.705079
           -54.892494 -158.549321 -76.929198 169.370703 -0.675013 80.038830
 481.459000 -0.457817 148.669494 -57.384435 -161.573839 -54.157421 -157.915017
           -57.376384 -161.607589 -0.625921 81.326038 -75.008235 163.279414
           -54.278434 -158.470140 -74.653833 166.473584 -0.665620 77.655231
 492.958000 -0.464084 147.677757 -56.539960 -162.107432 -54.154795 -162.721584
           -56.637007 -161.691809 -0.622178 79.110784 -74.421123 170.753658
           -54.170794 -163.266638 -75.702982 162.328254 -0.667796 75.289722
 504.457000 -0.476787 146.665775 -55.626108 -165.040963 -53.634431 -168.333633
           -55.700837 -164.464495 -0.626475 76.963412 -73.562811 161.179305
           -53.711816 -168.800751 -73.468755 164.893459 -0.667988 72.917002
 515.956000 -0.479064 145.647088 -54.703891 -168.467986 -52.726273 -167.008773
           -54.702761 -168.376643 -0.621530 74.828837 -73.143678 158.793188
           -52.771019 -167.799414 -72.800260 156.592876 -0.660641 70.548698
 527.455000 -0.498560 144.656524 -53.916492 -167.427676 -52.058838 -167.374727
           -53.947568 -167.407699 -0.632349 72.760177 -72.135948 155.752717
           -51.999618 -167.041282 -72.638126 159.306392 -0.655323 68.126677
 538.954000 -0.516637 143.520316 -53.757815 -166.995555 -51.300804 -169.101622
           -53.751014 -167.083607 -0.621679 70.592483 -70.707691 155.492587
           -51.263252 -168.941821 -70.639728 155.969864 -0.652096 65.759016
 550.453000 -0.522213 142.414495 -53.391410 -171.238398 -50.741100 -168.949213
           -53.343270 -171.743565 -0.616889 68.502058 -70.515953 154.961622
           -50.741494 -168.949072 -70.561171 151.863234 -0.657096 63.431526
 561.952000 -0.526804 141.299817 -52.566599 -174.207720 -50.580904 -171.949148
           -52.657561 -174.135283 -0.611373 66.473621 -70.020262 154.173605
           -50.623736 -171.765847 -70.249391 152.818805 -0.653982 61.107852
 573.451000 -0.538229 140.151351 -52.023824 -172.747229 -50.290141 -178.901520
           -52.040219 -173.105550 -0.597507 64.396494 -69.383818 150.992904
           -50.357585 -179.287290 -69.643233 150.126346 -0.645676 58.853403
 584.950000 -0.542211 138.982711 -51.392617 -173.611748 -49.501085 179.339593
           -51.417447 -173.925140 -0.588856 62.349491 -69.036808 146.141687
           -49.515230 179.231045 -68.527421 149.050061 -0.639062 56.555965
 596.449000 -0.540704 137.723496 -50.757814 -175.686319 -48.732871 -179.532149
           -50.737099 -175.385593 -0.589637 60.270841 -68.229958 147.239514
           -48.862646 -179.672866 -68.224985 147.812580 -0.636819 54.221962
 607.948000 -0.547488 136.472654 -50.276306 -178.904489 -48.194481 -179.602988
           -50.284095 -179.212432 -0.584685 58.159014 -67.598327 142.211307
           -48.252876 -179.562859 -67.807849 142.165914 -0.611759 51.876215
 619.447000 -0.546069 135.093845 -49.155922 176.820883 -47.463250 -179.789972
           -49.165313 176.743973 -0.573950 56.041025 -67.312365 139.750080
           -47.498316 179.967795 -67.447347 143.111739 -0.613404 49.486985
 630.946000 -0.540045 133.802106 -48.501201 177.200693 -47.087005 179.011101
           -48.522242 176.924678 -0.550931 53.969424 -67.215368 139.761657
           -47.132483 178.819860 -66.596340 140.907807 -0.608050 47.133534
 642.445000 -0.529670 132.421205 -48.050955 177.495680 -47.085718 172.395600
           -48.112795 177.496254 -0.537006 51.965614 -66.802056 138.904115
           -47.097396 172.052650 -66.695059 137.953865 -0.587260 44.916211
 653.944000 -0.549869 131.056285 -48.064934 175.920005 -46.313568 168.107120
           -48.070517 175.948562 -0.533200 49.940150 -65.923609 138.221527
           -46.322293 167.711836 -66.671384 136.258116 -0.575050 42.700238
 665.443000 -0.581897 129.652853 -47.570263 173.273667 -45.539212 167.327729
           -47.653407 173.244346 -0.538953 47.946297 -65.795293 135.936707
           -45.591259 167.397064 -65.779522 135.793319 -0.568260 40.390085
 676.942000 -0.603405 128.192385 -46.875453 172.721678 -45.429092 168.746811
           -46.937893 172.898046 -0.534868 45.975984 -66.006706 132.741693
           -45.422782 168.519733 -65.738978 131.953603 -0.572284 38.182370
 688.441000 -0.619926 126.571166 -46.268472 171.558844 -44.858926 169.745631
           -46.240279 171.583542 -0.527567 44.006658 -65.243968 130.421306
           -44.865944 169.310209 -65.435798 130.948064 -0.562441 35.919375
 699.940000 -0.639945 124.911479 -45.787773 169.720824 -44.319545 169.505944
           -45.782558 169.746401 -0.524197 42.045221 -65.378428 128.229188
           -44.353148 169.538871 -65.456233 129.117744 -0.575485 33.650299
 711.439000 -0.651182 123.192690 -45.537808 167.385754 -44.483569 164.346672
           -45.590038 167.418210 -0.511206 40.123525 -65.121386 127.935051
           -44.491791 164.200528 -65.168832 127.238074 -0.575753 31.506598
 722.938000 -0.660354 121.576305 -45.106994 161.899551 -44.186320 156.080040
           -45.103273 161.633660 -0.514105 38.191569 -65.172346 126.729488
           -44.174056 155.745854 -64.983912 127.315349 -0.569876 29.340614
 734.437000 -0.680007 119.717068 -43.853882 160.610686 -43.111515 155.010041
           -43.900603 160.608798 -0.513728 36.300361 -64.870569 126.736412
           -43.131105 154.784893 -64.750836 124.006478 -0.555693 27.098105
 745.936000 -0.696904 117.805735 -43.557695 159.781417 -42.728132 155.759026
           -43.565544 160.105470 -0.509301 34.354855 -64.607365 123.898174
           -42.773946 155.728081 -64.755226 122.740417 -0.549062 24.834666
 757.435000 -0.695532 115.800515 -43.542900 158.711580 -42.227112 156.841258
           -43.573962 158.944373 -0.492820 32.512751 -64.728638 121.507306
           -42.229187 156.878219 -64.660777 122.705172 -0.520331 22.695229
 768.934000 -0.729289 113.766387 -43.186986 157.590356 -41.662895 157.015254
           -43.186472 157.665473 -0.489433 30.650424 -64.468609 117.645759
           -41.692204 156.987459 -64.891983 120.613647 -0.525512 20.480550
 780.433000 -0.769903 111.544054 -42.520011 156.201096 -41.912595 154.531335
           -42.553373 156.211317 -0.478440 28.757675 -64.617914 117.297176
           -41.924233 154.462148 -64.603682 116.832591 -0.544471 18.324973
 791.932000 -0.805557 109.447586 -41.808490 153.620862 -42.241533 144.949618
           -41.821791 153.835000 -0.490945 26.911969 -64.235990 117.784045
           -42.242224 144.793971 -64.657971 116.446105 -0.557993 16.212679
 803.431000 -0.850444 107.137258 -41.171533 154.450167 -40.527527 139.285791
           -41.178611 154.327341 -0.493327 25.147286 -64.811483 118.950635
           -40.554891 139.398950 -64.844956 115.367294 -0.559527 14.042338
 814.930000 -0.893724 104.575729 -41.046686 152.132895 -39.992661 138.624215
           -41.055307 152.134343 -0.483419 23.313221 -64.914538 115.002355
           -40.010108 138.559888 -64.944348 117.546663 -0.532543 11.749882
 826.429000 -0.909604 101.871513 -41.055496 146.961360 -39.888473 141.945768
           -41.078391 146.937089 -0.465936 21.598169 -64.515642 113.720374
           -39.919668 141.865655 -64.988473 112.019069 -0.523335 9.482050
 837.928000 -0.939816 98.973517 -40.471621 139.462061 -39.161186 143.448924
           -40.477580 139.481430 -0.455947 19.796871 -65.334109 113.861803
           -39.173262 143.245905 -64.690595 114.764008 -0.525638 7.078560
 849.427000 -0.959686 95.833957 -39.692894 139.266867 -38.884271 143.688745
           -39.709692 139.205297 -0.447431 17.816927 -65.036814 111.343774
           -38.909816 143.619158 -65.215848 112.848592 -0.515074 4.707909
 860.926000 -0.999879 92.570633 -39.573438 138.879787 -39.846397 139.283723
           -39.618749 138.956239 -0.434303 15.931418 -64.946253 110.097870
           -39.868046 139.298128 -65.308034 110.660312 -0.517116 2.427151
 872.425000 -1.055843 89.318010 -39.236048 136.909806 -39.056635 123.447494
           -39.206818 137.089937 -0.440852 14.034928 -65.250578 109.833425
           -39.063852 123.452475 -65.516455 109.928704 -0.517608 0.307611
 883.924000 -1.122448 85.867351 -38.684597 134.794190 -37.642344 115.673578
           -38.703653 134.722080 -0.460537 12.147852 -65.433102 109.669136
           -37.664525 115.563405 -65.409631 113.669688 -0.535481 -1.914141
 895.423000 -1.171434 82.076158 -38.149771 129.969778 -37.687556 122.222361
           -38.147281 129.937429 -0.472346 10.419206 -66.202120 111.593258
           -37.677242 122.106450 -65.743674 111.172600 -0.535743 -4.276187
 906.922000 -1.259296 78.013080 -37.049287 127.029345 -37.384929 123.640736
           -37.049903 127.135964 -0.490789 8.622845 -66.285608 111.683252
           -37.401462 123.652605 -66.306819 110.748172 -0.538964 -6.697503
 918.421000 -1.358439 73.736104 -37.029754 128.369985 -36.154680 125.443675
           -37.012902 128.482661 -0.491675 6.845090 -67.364249 113.676559
           -36.169442 125.440204 -67.112357 114.102278 -0.589461 -9.116640
 929.920000 -1.454808 69.323843 -37.221784 124.829092 -36.622092 131.136843
           -37.216356 124.812189 -0.488679 5.120646 -67.474308 110.429901
           -36.644589 131.017395 -67.780327 112.090746 -0.627524 -11.334344
 941.419000 -1.527353 64.862101 -37.257460 118.524923 -39.170413 120.309337
           -37.240739 118.699795 -0.485580 3.468840 -68.182701 106.302359
           -39.185485 120.275291 -67.489859 108.941805 -0.641297 -13.382749
 952.918000 -1.596427 60.069147 -36.689774 114.860892 -38.701025 96.054963
           -36.674396 114.864407 -0.478745 1.675406 -67.380332 108.986913
           -38.725318 95.988341 -67.435405 108.260665 -0.621774 -15.221497
 964.417000 -1.633924 54.721949 -36.291840 113.506390 -36.127423 95.933131
           -36.290311 113.628008 -0.461953 -0.112859 -67.874284 114.598837
           -36.114968 95.965079 -67.742527 113.389759 -0.595528 -17.543526
 975.916000 -1.698449 48.806192 -35.893052 111.312373 -35.727974 99.804322
           -35.872745 111.193053 -0.465435 -1.899487 -68.889499 114.561857
           -35.741199 99.772976 -68.312119 119.826273 -0.554875 -20.136391
 987.415000 -1.767994 42.561201 -35.592117 107.517257 -35.090284 98.158097
           -35.591051 107.633915 -0.468556 -3.596748 -68.701094 121.842978
           -35.110576 97.917055 -69.512757 121.683795 -0.559126 -22.761186
 998.914000 -1.926092 35.956721 -35.381397 100.676343 -33.661401 102.323105
